
SetupTitle, MFCV-1  Light
PrimitiveTest, C-V Sweep
TestParameter, Channel.UnitTyp, CMU, SMU
TestParameter, Channel.Unit, CMU1:MF, SMU1:HP
TestParameter, Channel.IName, , I1
TestParameter, Channel.VName, VBias, V1
TestParameter, Channel.Mode, , V
TestParameter, Channel.Func, VAR1, CONST
TestParameter, Channel.Index, 
TestParameter, Channel.Time, 
TestParameter, Measurement.Primary.Locus, Single
TestParameter, Measurement.Primary.Scale, LINEAR
TestParameter, Measurement.Primary.Start, -10
TestParameter, Measurement.Primary.Stop, 10
TestParameter, Measurement.Primary.Step, 0.2
TestParameter, Measurement.Aborting.Condition, CONTINUE AT ANY
TestParameter, Measurement.PostOutput.Value, START
TestParameter, Measurement.PostOutput.Retention, OFF
TestParameter, Measurement.Secondary.ACLevel, 0.03
TestParameter, Measurement.Secondary.FName, Freq
TestParameter, Measurement.Secondary.Frequency, 1000, 1147.3, 1316.2, 1500, 1740, 1987.5, 2290, 2615.9, 3010, 3443.1, 3950.1, 4532.8, 5199.1, 5964.7, 6843.1, 7850.8, 9006.8000000000011, 10400, 11854.800000000001, 13600.5
TestParameter, Measurement.Bias.Source, 0, 17.900000000000002
TestParameter, Measurement.ImpedanceMode.Model, Cp-G
TestParameter, Measurement.ImpedanceMode.CName, C
TestParameter, Measurement.ImpedanceMode.GName, G
TestParameter, Measurement.ImpedanceMode.DName, D
TestParameter, Measurement.ImpedanceMode.RName, R
TestParameter, Measurement.ImpedanceMode.ZName, Z
TestParameter, Measurement.ImpedanceMode.ThName, Theta
TestParameter, Measurement.Monitor.Unit, CMU1:MF, SMU1:HP
TestParameter, Measurement.Monitor.RangingMode, AUTO, LIMITED
TestParameter, Measurement.Monitor.RangeBoundary, 50, 1nA
TestParameter, Measurement.Monitor.AcMonitorSymbol, 
TestParameter, Measurement.Monitor.DcMonitorSymbol, 
TestParameter, Measurement.Timing.Hold, 0
TestParameter, Measurement.Timing.Delay, 0
TestParameter, Measurement.Adc.UnitType, Cmu, Smu
TestParameter, Measurement.Adc.HighResolution.Mode, AUTO, PLC
TestParameter, Measurement.Adc.HighResolution.Coeff, 25, 10
TestParameter, Measurement.WaitTime.Source.Coeff, 1
TestParameter, Measurement.WaitTime.Source.Offset, 0
TestParameter, Measurement.WaitTime.Monitor.Coeff, 1
TestParameter, Measurement.WaitTime.Monitor.Offset, 0
TestParameter, Function.User.Name, Cox
TestParameter, Function.User.Unit, F
TestParameter, Function.User.Definition, max(C)/min(C)
TestParameter, Function.Analysis.Name, Cmax
TestParameter, Function.Analysis.Unit, F
TestParameter, Function.Analysis.Definition, max(C)
TestParameter, Output.Graph.Enabled, true
TestParameter, Output.Graph.XAxis.Data, VBias
TestParameter, Output.Graph.XAxis.Scale, Linear
TestParameter, Output.Graph.XAxis.Left, -3
TestParameter, Output.Graph.XAxis.Right, 3
TestParameter, Output.Graph.YAxis.Data, C, G
TestParameter, Output.Graph.YAxis.Scale, Linear, Linear
TestParameter, Output.Graph.YAxis.Bottom, 0, -0.001
TestParameter, Output.Graph.YAxis.Top, 1, 0.001
TestParameter, Output.Graph.YAxis.Group, , 
TestParameter, Output.List.Data, VBias, C, Cmax, G, Freq
TestParameter, Output.Scalar.Data, VBias, C, Cmax, Cox, G, Freq
TestParameter, AutoAnalysis.Interpolation, false
TestParameter, AutoAnalysis.Line1.Enabled, false
TestParameter, AutoAnalysis.Line1.Type, 1
TestParameter, AutoAnalysis.Line1.Fix, True
TestParameter, AutoAnalysis.Line1.YAxis, 0
TestParameter, AutoAnalysis.Line1.Point1.Type, 0
TestParameter, AutoAnalysis.Line1.Point1.XY.X, 
TestParameter, AutoAnalysis.Line1.Point1.XY.Y, 
TestParameter, AutoAnalysis.Line1.Point1.Data.Var, 
TestParameter, AutoAnalysis.Line1.Point1.Data.Condition, 
TestParameter, AutoAnalysis.Line1.Point1.Data.Start, false
TestParameter, AutoAnalysis.Line1.Point1.Data.StartVar, 
TestParameter, AutoAnalysis.Line1.Point1.Data.StartCondition, 
TestParameter, AutoAnalysis.Line1.Point2.Type, 0
TestParameter, AutoAnalysis.Line1.Point2.XY.X, 
TestParameter, AutoAnalysis.Line1.Point2.XY.Y, 
TestParameter, AutoAnalysis.Line1.Point2.Data.Var, 
TestParameter, AutoAnalysis.Line1.Point2.Data.Condition, 
TestParameter, AutoAnalysis.Line1.Point2.Data.Start, false
TestParameter, AutoAnalysis.Line1.Point2.Data.StartVar, 
TestParameter, AutoAnalysis.Line1.Point2.Data.StartCondition, 
TestParameter, AutoAnalysis.Line1.GradientExpr, 0
TestParameter, AutoAnalysis.Line2.Enabled, false
TestParameter, AutoAnalysis.Line2.Type, 1
TestParameter, AutoAnalysis.Line2.Fix, True
TestParameter, AutoAnalysis.Line2.YAxis, 0
TestParameter, AutoAnalysis.Line2.Point1.Type, 0
TestParameter, AutoAnalysis.Line2.Point1.XY.X, 
TestParameter, AutoAnalysis.Line2.Point1.XY.Y, 
TestParameter, AutoAnalysis.Line2.Point1.Data.Var, 
TestParameter, AutoAnalysis.Line2.Point1.Data.Condition, 
TestParameter, AutoAnalysis.Line2.Point1.Data.Start, false
TestParameter, AutoAnalysis.Line2.Point1.Data.StartVar, 
TestParameter, AutoAnalysis.Line2.Point1.Data.StartCondition, 
TestParameter, AutoAnalysis.Line2.Point2.Type, 0
TestParameter, AutoAnalysis.Line2.Point2.XY.X, 
TestParameter, AutoAnalysis.Line2.Point2.XY.Y, 
TestParameter, AutoAnalysis.Line2.Point2.Data.Var, 
TestParameter, AutoAnalysis.Line2.Point2.Data.Condition, 
TestParameter, AutoAnalysis.Line2.Point2.Data.Start, false
TestParameter, AutoAnalysis.Line2.Point2.Data.StartVar, 
TestParameter, AutoAnalysis.Line2.Point2.Data.StartCondition, 
TestParameter, AutoAnalysis.Line2.GradientExpr, 0
TestParameter, AutoAnalysis.Marker.Enabled, false
TestParameter, AutoAnalysis.Marker.Data.Var, 
TestParameter, AutoAnalysis.Marker.Data.Condition, 
TestParameter, AutoAnalysis.Marker.Data.Start, false
TestParameter, AutoAnalysis.Marker.Data.StartVar, 
TestParameter, AutoAnalysis.Marker.Data.StartCondition, 
MetaData, TestRecord.EntryPoint, true
MetaData, TestRecord.RecordTime, 11/02/2022 15:00:09
MetaData, TestRecord.TestTarget, #1-2_light
MetaData, TestRecord.IterationIndex, 4
MetaData, TestRecord.Preservation, true
MetaData, TestRecord.Flag, 
MetaData, TestRecord.Remarks, 
MetaData, TestRecord.LinkKey, fb41df45-88fb-4bff-abab-3b0f9a347eb1
Dimension1, 101, 101, 101, 101, 101, 101
Dimension2, 20, 20, 20, 20, 20, 20
DataName, VBias, Freq, C, G, Cox, Cmax
DataValue, -10, 1000, 1.1967700000000002E-10, 3.0102E-09, 1.128905303441764, 1.35104E-10
DataValue, -9.8, 1000, 1.19777E-10, 2.86973E-09, 1.1288114915058785, 1.3508600000000001E-10
DataValue, -9.6, 1000, 1.1985E-10, 2.83218E-09, 1.12886809008482, 1.3508600000000001E-10
DataValue, -9.4, 1000, 1.1990600000000002E-10, 2.69847E-09, 1.1291476522407768, 1.35098E-10
DataValue, -9.2000000000000011, 1000, 1.19952E-10, 2.81132E-09, 1.1291654477830249, 1.3509900000000002E-10
DataValue, -9, 1000, 1.19986E-10, 2.64701E-09, 1.1293876698014629, 1.35103E-10
DataValue, -8.8, 1000, 1.2004100000000002E-10, 2.54906E-09, 1.1295325524425828, 1.351E-10
DataValue, -8.6, 1000, 1.20061E-10, 2.50634E-09, 1.1293774400387897, 1.35095E-10
DataValue, -8.4, 1000, 1.201E-10, 2.62456E-09, 1.1296211126627478, 1.35088E-10
DataValue, -8.2, 1000, 1.2014700000000002E-10, 2.67304E-09, 1.1295833298492362, 1.35088E-10
DataValue, -8, 1000, 1.20184E-10, 2.66191E-09, 1.1295749680159879, 1.3508700000000002E-10
DataValue, -7.8, 1000, 1.2022500000000002E-10, 2.49502E-09, 1.1296432573464235, 1.35085E-10
DataValue, -7.6000000000000005, 1000, 1.20254E-10, 2.48866E-09, 1.129673766694264, 1.3508300000000001E-10
DataValue, -7.4, 1000, 1.2025500000000002E-10, 2.49641E-09, 1.1298711075052068, 1.3508400000000002E-10
DataValue, -7.2, 1000, 1.2031300000000002E-10, 2.57071E-09, 1.1298089789910344, 1.3508900000000001E-10
DataValue, -7, 1000, 1.20323E-10, 2.56873E-09, 1.1299739851271884, 1.35085E-10
DataValue, -6.8, 1000, 1.20348E-10, 2.67383E-09, 1.1299270561466905, 1.35076E-10
DataValue, -6.6000000000000005, 1000, 1.2039700000000002E-10, 2.57826E-09, 1.1300823210521032, 1.3508100000000002E-10
DataValue, -6.4, 1000, 1.20429E-10, 2.67284E-09, 1.1301506822954577, 1.35079E-10
DataValue, -6.2, 1000, 1.2043600000000002E-10, 2.7336299999999998E-09, 1.1299521515090676, 1.35079E-10
DataValue, -6, 1000, 1.20458E-10, 2.72827E-09, , 
DataValue, -5.8, 1000, 1.20462E-10, 2.78489E-09, , 
DataValue, -5.6000000000000005, 1000, 1.2050500000000002E-10, 2.84887E-09, , 
DataValue, -5.4, 1000, 1.2051700000000001E-10, 2.75728E-09, , 
DataValue, -5.2, 1000, 1.20525E-10, 2.81271E-09, , 
DataValue, -5, 1000, 1.20561E-10, 2.89337E-09, , 
DataValue, -4.8, 1000, 1.20561E-10, 3.00305E-09, , 
DataValue, -4.6000000000000005, 1000, 1.2059600000000002E-10, 3.20491E-09, , 
DataValue, -4.4, 1000, 1.20624E-10, 3.31756E-09, , 
DataValue, -4.2, 1000, 1.2065300000000002E-10, 3.35432E-09, , 
DataValue, -4, 1000, 1.2066E-10, 3.23968E-09, , 
DataValue, -3.8000000000000003, 1000, 1.20699E-10, 3.26074E-09, , 
DataValue, -3.6, 1000, 1.20714E-10, 3.46995E-09, , 
DataValue, -3.4, 1000, 1.20748E-10, 3.39306E-09, , 
DataValue, -3.2, 1000, 1.20793E-10, 3.26908E-09, , 
DataValue, -3, 1000, 1.2081600000000002E-10, 3.30743E-09, , 
DataValue, -2.8000000000000003, 1000, 1.20874E-10, 3.51227E-09, , 
DataValue, -2.6, 1000, 1.20907E-10, 3.63923E-09, , 
DataValue, -2.4, 1000, 1.20967E-10, 3.80751E-09, , 
DataValue, -2.2, 1000, 1.21023E-10, 4.005E-09, , 
DataValue, -2, 1000, 1.2111100000000002E-10, 4.16693E-09, , 
DataValue, -1.8, 1000, 1.21187E-10, 4.38985E-09, , 
DataValue, -1.6, 1000, 1.21255E-10, 4.47727E-09, , 
DataValue, -1.4000000000000001, 1000, 1.21368E-10, 4.31971E-09, , 
DataValue, -1.2, 1000, 1.21492E-10, 4.49217E-09, , 
DataValue, -1, 1000, 1.21573E-10, 4.50032E-09, , 
DataValue, -0.8, 1000, 1.21691E-10, 4.46833E-09, , 
DataValue, -0.6, 1000, 1.21857E-10, 4.22911E-09, , 
DataValue, -0.4, 1000, 1.22035E-10, 4.10593E-09, , 
DataValue, -0.2, 1000, 1.22317E-10, 3.75267E-09, , 
DataValue, 0, 1000, 1.2274400000000002E-10, 3.25895E-09, , 
DataValue, 0.2, 1000, 1.23402E-10, 2.8751E-09, , 
DataValue, 0.4, 1000, 1.2435900000000002E-10, 2.55859E-09, , 
DataValue, 0.6, 1000, 1.25518E-10, 2.34382E-09, , 
DataValue, 0.8, 1000, 1.2684800000000002E-10, 2.075E-09, , 
DataValue, 1, 1000, 1.2808400000000002E-10, 1.86182E-09, , 
DataValue, 1.2, 1000, 1.2917700000000001E-10, 1.6826E-09, , 
DataValue, 1.4000000000000001, 1000, 1.30099E-10, 1.60611E-09, , 
DataValue, 1.6, 1000, 1.30857E-10, 1.48114E-09, , 
DataValue, 1.8, 1000, 1.3143200000000002E-10, 1.51293E-09, , 
DataValue, 2, 1000, 1.31957E-10, 1.6087E-09, , 
DataValue, 2.2, 1000, 1.32373E-10, 1.5777E-09, , 
DataValue, 2.4, 1000, 1.32695E-10, 1.39014E-09, , 
DataValue, 2.6, 1000, 1.32961E-10, 1.44319E-09, , 
DataValue, 2.8000000000000003, 1000, 1.33196E-10, 1.52426E-09, , 
DataValue, 3, 1000, 1.33392E-10, 1.57353E-09, , 
DataValue, 3.2, 1000, 1.33578E-10, 1.57909E-09, , 
DataValue, 3.4, 1000, 1.3372500000000002E-10, 1.56995E-09, , 
DataValue, 3.6, 1000, 1.3386000000000002E-10, 1.63174E-09, , 
DataValue, 3.8000000000000003, 1000, 1.3395400000000002E-10, 1.5473E-09, , 
DataValue, 4, 1000, 1.34063E-10, 1.54094E-09, , 
DataValue, 4.2, 1000, 1.34142E-10, 1.44578E-09, , 
DataValue, 4.4, 1000, 1.3423E-10, 1.55763E-09, , 
DataValue, 4.6000000000000005, 1000, 1.34299E-10, 1.52604E-09, , 
DataValue, 4.8, 1000, 1.3438400000000001E-10, 1.41597E-09, , 
DataValue, 5, 1000, 1.34444E-10, 1.4116E-09, , 
DataValue, 5.2, 1000, 1.34489E-10, 1.33809E-09, , 
DataValue, 5.4, 1000, 1.34521E-10, 1.44021E-09, , 
DataValue, 5.6000000000000005, 1000, 1.3457E-10, 1.40226E-09, , 
DataValue, 5.8, 1000, 1.34615E-10, 1.46922E-09, , 
DataValue, 6, 1000, 1.34672E-10, 1.38677E-09, , 
DataValue, 6.2, 1000, 1.3470700000000002E-10, 1.32657E-09, , 
DataValue, 6.4, 1000, 1.34735E-10, 1.41796E-09, , 
DataValue, 6.6000000000000005, 1000, 1.3475200000000002E-10, 1.37842E-09, , 
DataValue, 6.8, 1000, 1.34795E-10, 1.42491E-09, , 
DataValue, 7, 1000, 1.34817E-10, 1.26696E-09, , 
DataValue, 7.2, 1000, 1.34832E-10, 1.2308E-09, , 
DataValue, 7.4, 1000, 1.34887E-10, 1.31325E-09, , 
DataValue, 7.6000000000000005, 1000, 1.34877E-10, 1.3071E-09, , 
DataValue, 7.8, 1000, 1.34922E-10, 1.39412E-09, , 
DataValue, 8, 1000, 1.34913E-10, 1.32339E-09, , 
DataValue, 8.2, 1000, 1.34949E-10, 1.46405E-09, , 
DataValue, 8.4, 1000, 1.34988E-10, 1.3818E-09, , 
DataValue, 8.6, 1000, 1.34998E-10, 1.19385E-09, , 
DataValue, 8.8, 1000, 1.3501100000000002E-10, 1.20954E-09, , 
DataValue, 9, 1000, 1.35073E-10, 1.321E-09, , 
DataValue, 9.2000000000000011, 1000, 1.3503E-10, 1.33292E-09, , 
DataValue, 9.4, 1000, 1.35055E-10, 1.3212E-09, , 
DataValue, 9.6, 1000, 1.35082E-10, 1.3214E-09, , 
DataValue, 9.8, 1000, 1.3508000000000001E-10, 1.3675E-09, , 
DataValue, 10, 1000, 1.35104E-10, 1.09649E-09, , 
DataValue, -10, 1147.3, 1.1967100000000002E-10, 1.77617E-09, , 
DataValue, -9.8, 1147.3, 1.19745E-10, 1.90174E-09, , 
DataValue, -9.6, 1147.3, 1.1981200000000002E-10, 1.7865E-09, , 
DataValue, -9.4, 1147.3, 1.1988800000000002E-10, 1.70822E-09, , 
DataValue, -9.2000000000000011, 1147.3, 1.1992400000000002E-10, 1.76663E-09, , 
DataValue, -9, 1147.3, 1.1996900000000002E-10, 1.86915E-09, , 
DataValue, -8.8, 1147.3, 1.20034E-10, 1.78769E-09, , 
DataValue, -8.6, 1147.3, 1.20057E-10, 1.74041E-09, , 
DataValue, -8.4, 1147.3, 1.2006800000000001E-10, 1.71498E-09, , 
DataValue, -8.2, 1147.3, 1.2011700000000002E-10, 1.77915E-09, , 
DataValue, -8, 1147.3, 1.20158E-10, 1.75769E-09, , 
DataValue, -7.8, 1147.3, 1.20193E-10, 1.70167E-09, , 
DataValue, -7.6000000000000005, 1147.3, 1.2021900000000002E-10, 1.78412E-09, , 
DataValue, -7.4, 1147.3, 1.2024600000000002E-10, 1.67584E-09, , 
DataValue, -7.2, 1147.3, 1.20281E-10, 1.70564E-09, , 
DataValue, -7, 1147.3, 1.20326E-10, 1.76584E-09, , 
DataValue, -6.8, 1147.3, 1.20338E-10, 1.77299E-09, , 
DataValue, -6.6000000000000005, 1147.3, 1.2038200000000002E-10, 1.79385E-09, , 
DataValue, -6.4, 1147.3, 1.20399E-10, 1.82763E-09, , 
DataValue, -6.2, 1147.3, 1.20426E-10, 2.01638E-09, , 
DataValue, -6, 1147.3, 1.2043900000000002E-10, 2.0281E-09, , 
DataValue, -5.8, 1147.3, 1.2046600000000002E-10, 1.97167E-09, , 
DataValue, -5.6000000000000005, 1147.3, 1.20482E-10, 1.98002E-09, , 
DataValue, -5.4, 1147.3, 1.2051700000000001E-10, 2.01638E-09, , 
DataValue, -5.2, 1147.3, 1.2053200000000001E-10, 2.07539E-09, , 
DataValue, -5, 1147.3, 1.2053600000000002E-10, 2.21009E-09, , 
DataValue, -4.8, 1147.3, 1.2055100000000002E-10, 2.13459E-09, , 
DataValue, -4.6000000000000005, 1147.3, 1.20571E-10, 2.41374E-09, , 
DataValue, -4.4, 1147.3, 1.2061E-10, 2.32374E-09, , 
DataValue, -4.2, 1147.3, 1.20612E-10, 2.50633E-09, , 
DataValue, -4, 1147.3, 1.20649E-10, 2.66806E-09, , 
DataValue, -3.8000000000000003, 1147.3, 1.20679E-10, 2.68852E-09, , 
DataValue, -3.6, 1147.3, 1.20705E-10, 2.79243E-09, , 
DataValue, -3.4, 1147.3, 1.2072E-10, 3.04217E-09, , 
DataValue, -3.2, 1147.3, 1.2077400000000002E-10, 2.99608E-09, , 
DataValue, -3, 1147.3, 1.20802E-10, 3.27463E-09, , 
DataValue, -2.8000000000000003, 1147.3, 1.2082800000000002E-10, 3.47252E-09, , 
DataValue, -2.6, 1147.3, 1.2088200000000002E-10, 7.99294E-09, , 
DataValue, -2.4, 1147.3, 1.20934E-10, 6.52467E-09, , 
DataValue, -2.2, 1147.3, 1.2098500000000002E-10, 4.9974E-09, , 
DataValue, -2, 1147.3, 1.21067E-10, 4.3946E-09, , 
DataValue, -1.8, 1147.3, 1.21151E-10, 4.53388E-09, , 
DataValue, -1.6, 1147.3, 1.21236E-10, 4.61216E-09, , 
DataValue, -1.4000000000000001, 1147.3, 1.2133700000000002E-10, 4.69084E-09, , 
DataValue, -1.2, 1147.3, 1.21423E-10, 4.82694E-09, , 
DataValue, -1, 1147.3, 1.21531E-10, 4.79236E-09, , 
DataValue, -0.8, 1147.3, 1.2166200000000001E-10, 4.84621E-09, , 
DataValue, -0.6, 1147.3, 1.2179800000000002E-10, 4.57501E-09, , 
DataValue, -0.4, 1147.3, 1.2199700000000002E-10, 4.41944E-09, , 
DataValue, -0.2, 1147.3, 1.22275E-10, 4.09996E-09, , 
DataValue, 0, 1147.3, 1.2270800000000002E-10, 3.62491E-09, , 
DataValue, 0.2, 1147.3, 1.2338000000000002E-10, 3.16774E-09, , 
DataValue, 0.4, 1147.3, 1.2430800000000002E-10, 2.75408E-09, , 
DataValue, 0.6, 1147.3, 1.25496E-10, 2.25241E-09, , 
DataValue, 0.8, 1147.3, 1.26784E-10, 2.16579E-09, , 
DataValue, 1, 1147.3, 1.28046E-10, 1.82286E-09, , 
DataValue, 1.2, 1147.3, 1.2915100000000002E-10, 1.72849E-09, , 
DataValue, 1.4000000000000001, 1147.3, 1.30071E-10, 1.6206E-09, , 
DataValue, 1.6, 1147.3, 1.30827E-10, 1.54808E-09, , 
DataValue, 1.8, 1147.3, 1.31433E-10, 1.52762E-09, , 
DataValue, 2, 1147.3, 1.31922E-10, 1.56239E-09, , 
DataValue, 2.2, 1147.3, 1.3233900000000002E-10, 1.59279E-09, , 
DataValue, 2.4, 1147.3, 1.3266E-10, 1.50775E-09, , 
DataValue, 2.6, 1147.3, 1.3297100000000002E-10, 1.40424E-09, , 
DataValue, 2.8000000000000003, 1147.3, 1.33201E-10, 1.47318E-09, , 
DataValue, 3, 1147.3, 1.3339000000000002E-10, 1.55265E-09, , 
DataValue, 3.2, 1147.3, 1.33566E-10, 1.56318E-09, , 
DataValue, 3.4, 1147.3, 1.3370100000000002E-10, 1.50994E-09, , 
DataValue, 3.6, 1147.3, 1.33843E-10, 1.46722E-09, , 
DataValue, 3.8000000000000003, 1147.3, 1.33968E-10, 1.47139E-09, , 
DataValue, 4, 1147.3, 1.34043E-10, 1.35477E-09, , 
DataValue, 4.2, 1147.3, 1.3414300000000001E-10, 1.30669E-09, , 
DataValue, 4.4, 1147.3, 1.3423E-10, 1.35218E-09, , 
DataValue, 4.6000000000000005, 1147.3, 1.3431500000000002E-10, 1.42113E-09, , 
DataValue, 4.8, 1147.3, 1.34371E-10, 1.42808E-09, , 
DataValue, 5, 1147.3, 1.3442E-10, 1.22483E-09, , 
DataValue, 5.2, 1147.3, 1.3447500000000002E-10, 1.31702E-09, , 
DataValue, 5.4, 1147.3, 1.34534E-10, 1.03985E-09, , 
DataValue, 5.6000000000000005, 1147.3, 1.34566E-10, 7.76402E-10, , 
DataValue, 5.8, 1147.3, 1.3461600000000001E-10, 7.49978E-10, , 
DataValue, 6, 1147.3, 1.3467E-10, 7.13818E-10, , 
DataValue, 6.2, 1147.3, 1.34699E-10, 6.71697E-10, , 
DataValue, 6.4, 1147.3, 1.3471000000000002E-10, 6.8163100000000006E-10, , 
DataValue, 6.6000000000000005, 1147.3, 1.3476700000000002E-10, 8.56471E-10, , 
DataValue, 6.8, 1147.3, 1.34795E-10, 5.38977E-10, , 
DataValue, 7, 1147.3, 1.34832E-10, 6.4268900000000007E-10, , 
DataValue, 7.2, 1147.3, 1.3484000000000002E-10, 6.1109900000000008E-10, , 
DataValue, 7.4, 1147.3, 1.3487600000000002E-10, 7.7123700000000009E-10, , 
DataValue, 7.6000000000000005, 1147.3, 1.34893E-10, 5.85469E-10, , 
DataValue, 7.8, 1147.3, 1.3490900000000002E-10, 5.8447500000000009E-10, , 
DataValue, 8, 1147.3, 1.34934E-10, 6.65538E-10, , 
DataValue, 8.2, 1147.3, 1.3495E-10, 8.0203200000000009E-10, , 
DataValue, 8.4, 1147.3, 1.3497500000000002E-10, 6.15867E-10, , 
DataValue, 8.6, 1147.3, 1.34986E-10, 5.10168E-10, , 
DataValue, 8.8, 1147.3, 1.35E-10, 7.5633600000000006E-10, , 
DataValue, 9, 1147.3, 1.35021E-10, 6.5739200000000006E-10, , 
DataValue, 9.2000000000000011, 1147.3, 1.3502900000000002E-10, 5.96396E-10, , 
DataValue, 9.4, 1147.3, 1.35039E-10, 6.7428000000000007E-10, , 
DataValue, 9.6, 1147.3, 1.35067E-10, 6.65538E-10, , 
DataValue, 9.8, 1147.3, 1.35076E-10, 6.56796E-10, , 
DataValue, 10, 1147.3, 1.3508600000000001E-10, 5.9739E-10, , 
DataValue, -10, 1316.2, 1.1966500000000002E-10, 1.17237E-09, , 
DataValue, -9.8, 1316.2, 1.19762E-10, 9.82033E-10, , 
DataValue, -9.6, 1316.2, 1.1980600000000002E-10, 9.40906E-10, , 
DataValue, -9.4, 1316.2, 1.19878E-10, 1.01601E-09, , 
DataValue, -9.2000000000000011, 1316.2, 1.1992400000000002E-10, 7.6407900000000011E-10, , 
DataValue, -9, 1316.2, 1.19964E-10, 1.15588E-09, , 
DataValue, -8.8, 1316.2, 1.20006E-10, 9.55609E-10, , 
DataValue, -8.6, 1316.2, 1.20048E-10, 1.02455E-09, , 
DataValue, -8.4, 1316.2, 1.20079E-10, 8.71367E-10, , 
DataValue, -8.2, 1316.2, 1.20133E-10, 1.16124E-09, , 
DataValue, -8, 1316.2, 1.2015300000000002E-10, 1.01958E-09, , 
DataValue, -7.8, 1316.2, 1.20187E-10, 1.09488E-09, , 
DataValue, -7.6000000000000005, 1316.2, 1.20217E-10, 1.06151E-09, , 
DataValue, -7.4, 1316.2, 1.2026100000000002E-10, 1.09051E-09, , 
DataValue, -7.2, 1316.2, 1.2027600000000002E-10, 9.9534500000000014E-10, , 
DataValue, -7, 1316.2, 1.20314E-10, 1.07939E-09, , 
DataValue, -6.8, 1316.2, 1.20329E-10, 1.1225E-09, , 
DataValue, -6.6000000000000005, 1316.2, 1.2037600000000002E-10, 1.01044E-09, , 
DataValue, -6.4, 1316.2, 1.20392E-10, 1.19641E-09, , 
DataValue, -6.2, 1316.2, 1.20414E-10, 1.08535E-09, , 
DataValue, -6, 1316.2, 1.2043000000000002E-10, 1.10482E-09, , 
DataValue, -5.8, 1316.2, 1.2044800000000002E-10, 1.20416E-09, , 
