
SetupTitle, MFCV-2  Light
PrimitiveTest, C-V Sweep
TestParameter, Channel.UnitTyp, CMU, SMU
TestParameter, Channel.Unit, CMU1:MF, SMU1:HP
TestParameter, Channel.IName, , I1
TestParameter, Channel.VName, VBias, V1
TestParameter, Channel.Mode, , V
TestParameter, Channel.Func, VAR1, CONST
TestParameter, Channel.Index, 
TestParameter, Channel.Time, 
TestParameter, Measurement.Primary.Locus, Single
TestParameter, Measurement.Primary.Scale, LINEAR
TestParameter, Measurement.Primary.Start, -10
TestParameter, Measurement.Primary.Stop, 10
TestParameter, Measurement.Primary.Step, 0.2
TestParameter, Measurement.Aborting.Condition, CONTINUE AT ANY
TestParameter, Measurement.PostOutput.Value, START
TestParameter, Measurement.PostOutput.Retention, OFF
TestParameter, Measurement.Secondary.ACLevel, 0.03
TestParameter, Measurement.Secondary.FName, Freq
TestParameter, Measurement.Secondary.Frequency, 15603.300000000001, 17901, 21800, 24100, 27100, 31100, 35500, 40817.1, 46827.700000000004, 53800, 61634.6, 70700, 81123.3, 93100, 106774.5, 122497.8, 140536.5, 161231.5, 184974, 212212.7
TestParameter, Measurement.Bias.Source, 0, 17.900000000000002
TestParameter, Measurement.ImpedanceMode.Model, Cp-G
TestParameter, Measurement.ImpedanceMode.CName, C
TestParameter, Measurement.ImpedanceMode.GName, G
TestParameter, Measurement.ImpedanceMode.DName, D
TestParameter, Measurement.ImpedanceMode.RName, R
TestParameter, Measurement.ImpedanceMode.ZName, Z
TestParameter, Measurement.ImpedanceMode.ThName, Theta
TestParameter, Measurement.Monitor.Unit, CMU1:MF, SMU1:HP
TestParameter, Measurement.Monitor.RangingMode, AUTO, LIMITED
TestParameter, Measurement.Monitor.RangeBoundary, 50, 1nA
TestParameter, Measurement.Monitor.AcMonitorSymbol, 
TestParameter, Measurement.Monitor.DcMonitorSymbol, 
TestParameter, Measurement.Timing.Hold, 0
TestParameter, Measurement.Timing.Delay, 0
TestParameter, Measurement.Adc.UnitType, Cmu, Smu
TestParameter, Measurement.Adc.HighResolution.Mode, AUTO, PLC
TestParameter, Measurement.Adc.HighResolution.Coeff, 25, 10
TestParameter, Measurement.WaitTime.Source.Coeff, 1
TestParameter, Measurement.WaitTime.Source.Offset, 0
TestParameter, Measurement.WaitTime.Monitor.Coeff, 1
TestParameter, Measurement.WaitTime.Monitor.Offset, 0
TestParameter, Function.User.Name, Cox
TestParameter, Function.User.Unit, F
TestParameter, Function.User.Definition, max(C)/min(C)
TestParameter, Function.Analysis.Name, Cmax
TestParameter, Function.Analysis.Unit, F
TestParameter, Function.Analysis.Definition, max(C)
TestParameter, Output.Graph.Enabled, true
TestParameter, Output.Graph.XAxis.Data, VBias
TestParameter, Output.Graph.XAxis.Scale, Linear
TestParameter, Output.Graph.XAxis.Left, -3
TestParameter, Output.Graph.XAxis.Right, 3
TestParameter, Output.Graph.YAxis.Data, C, G
TestParameter, Output.Graph.YAxis.Scale, Linear, Linear
TestParameter, Output.Graph.YAxis.Bottom, 0, -0.001
TestParameter, Output.Graph.YAxis.Top, 1, 0.001
TestParameter, Output.Graph.YAxis.Group, , 
TestParameter, Output.List.Data, VBias, C, Cmax, G, Freq
TestParameter, Output.Scalar.Data, VBias, C, Cmax, Cox, G, Freq
TestParameter, AutoAnalysis.Interpolation, false
TestParameter, AutoAnalysis.Line1.Enabled, false
TestParameter, AutoAnalysis.Line1.Type, 1
TestParameter, AutoAnalysis.Line1.Fix, True
TestParameter, AutoAnalysis.Line1.YAxis, 0
TestParameter, AutoAnalysis.Line1.Point1.Type, 0
TestParameter, AutoAnalysis.Line1.Point1.XY.X, 
TestParameter, AutoAnalysis.Line1.Point1.XY.Y, 
TestParameter, AutoAnalysis.Line1.Point1.Data.Var, 
TestParameter, AutoAnalysis.Line1.Point1.Data.Condition, 
TestParameter, AutoAnalysis.Line1.Point1.Data.Start, false
TestParameter, AutoAnalysis.Line1.Point1.Data.StartVar, 
TestParameter, AutoAnalysis.Line1.Point1.Data.StartCondition, 
TestParameter, AutoAnalysis.Line1.Point2.Type, 0
TestParameter, AutoAnalysis.Line1.Point2.XY.X, 
TestParameter, AutoAnalysis.Line1.Point2.XY.Y, 
TestParameter, AutoAnalysis.Line1.Point2.Data.Var, 
TestParameter, AutoAnalysis.Line1.Point2.Data.Condition, 
TestParameter, AutoAnalysis.Line1.Point2.Data.Start, false
TestParameter, AutoAnalysis.Line1.Point2.Data.StartVar, 
TestParameter, AutoAnalysis.Line1.Point2.Data.StartCondition, 
TestParameter, AutoAnalysis.Line1.GradientExpr, 0
TestParameter, AutoAnalysis.Line2.Enabled, false
TestParameter, AutoAnalysis.Line2.Type, 1
TestParameter, AutoAnalysis.Line2.Fix, True
TestParameter, AutoAnalysis.Line2.YAxis, 0
TestParameter, AutoAnalysis.Line2.Point1.Type, 0
TestParameter, AutoAnalysis.Line2.Point1.XY.X, 
TestParameter, AutoAnalysis.Line2.Point1.XY.Y, 
TestParameter, AutoAnalysis.Line2.Point1.Data.Var, 
TestParameter, AutoAnalysis.Line2.Point1.Data.Condition, 
TestParameter, AutoAnalysis.Line2.Point1.Data.Start, false
TestParameter, AutoAnalysis.Line2.Point1.Data.StartVar, 
TestParameter, AutoAnalysis.Line2.Point1.Data.StartCondition, 
TestParameter, AutoAnalysis.Line2.Point2.Type, 0
TestParameter, AutoAnalysis.Line2.Point2.XY.X, 
TestParameter, AutoAnalysis.Line2.Point2.XY.Y, 
TestParameter, AutoAnalysis.Line2.Point2.Data.Var, 
TestParameter, AutoAnalysis.Line2.Point2.Data.Condition, 
TestParameter, AutoAnalysis.Line2.Point2.Data.Start, false
TestParameter, AutoAnalysis.Line2.Point2.Data.StartVar, 
TestParameter, AutoAnalysis.Line2.Point2.Data.StartCondition, 
TestParameter, AutoAnalysis.Line2.GradientExpr, 0
TestParameter, AutoAnalysis.Marker.Enabled, false
TestParameter, AutoAnalysis.Marker.Data.Var, 
TestParameter, AutoAnalysis.Marker.Data.Condition, 
TestParameter, AutoAnalysis.Marker.Data.Start, false
TestParameter, AutoAnalysis.Marker.Data.StartVar, 
TestParameter, AutoAnalysis.Marker.Data.StartCondition, 
MetaData, TestRecord.EntryPoint, true
MetaData, TestRecord.RecordTime, 11/02/2022 15:01:29
MetaData, TestRecord.TestTarget, #1-2_light
MetaData, TestRecord.IterationIndex, 4
MetaData, TestRecord.Preservation, true
MetaData, TestRecord.Flag, 
MetaData, TestRecord.Remarks, 
MetaData, TestRecord.LinkKey, 4673a55b-700b-4a4f-9a92-803bcfe8268c
Dimension1, 101, 101, 101, 101, 101, 101
Dimension2, 20, 20, 20, 20, 20, 20
DataName, VBias, Freq, C, G, Cox, Cmax
DataValue, -10, 15603.300000000001, 1.19513E-10, 6.19451E-08, 1.1302117761247732, 1.3507500000000002E-10
DataValue, -9.8, 15603.300000000001, 1.1957E-10, 5.86391E-08, 1.1297056781780317, 1.3507100000000001E-10
DataValue, -9.6, 15603.300000000001, 1.1962E-10, 6.09855E-08, 1.1303529293639238, 1.3509300000000002E-10
DataValue, -9.4, 15603.300000000001, 1.19657E-10, 6.11464E-08, 1.1315509633338636, 1.3514E-10
DataValue, -9.2000000000000011, 15603.300000000001, 1.19678E-10, 5.9880800000000008E-08, 1.1319975540496392, 1.35139E-10
DataValue, -9, 15603.300000000001, 1.1974300000000002E-10, 6.02782E-08, 1.1311641456207466, 1.3513E-10
DataValue, -8.8, 15603.300000000001, 1.19771E-10, 5.88238E-08, 1.1307283604568466, 1.35139E-10
DataValue, -8.6, 15603.300000000001, 1.1979400000000002E-10, 6.03537E-08, 1.1305588803977535, 1.3506900000000002E-10
DataValue, -8.4, 15603.300000000001, 1.19846E-10, 5.92033E-08, 1.1312887951948334, 1.35232E-10
DataValue, -8.2, 15603.300000000001, 1.1988500000000002E-10, 5.9380100000000005E-08, 1.1304325997824449, 1.35098E-10
DataValue, -8, 15603.300000000001, 1.19937E-10, 5.86192E-08, 1.1306531401451423, 1.3507800000000002E-10
DataValue, -7.8, 15603.300000000001, 1.19947E-10, 5.88318E-08, 1.1304114954264339, 1.3507400000000001E-10
DataValue, -7.6000000000000005, 15603.300000000001, 1.19974E-10, 5.96325E-08, 1.1305577875987678, 1.3507E-10
DataValue, -7.4, 15603.300000000001, 1.20043E-10, 5.79516E-08, 1.1306200349904991, 1.3506500000000001E-10
DataValue, -7.2, 15603.300000000001, 1.20055E-10, 5.9163600000000004E-08, 1.1303532720135918, 1.35058E-10
DataValue, -7, 15603.300000000001, 1.2008100000000002E-10, 5.99682E-08, 1.1303900148170469, 1.35033E-10
DataValue, -6.8, 15603.300000000001, 1.20124E-10, 5.88834E-08, 1.1299664370548306, 1.3500500000000002E-10
DataValue, -6.6000000000000005, 15603.300000000001, 1.2015900000000002E-10, 5.86708E-08, 1.1298841530786485, 1.34985E-10
DataValue, -6.4, 15603.300000000001, 1.20193E-10, 5.98908E-08, 1.1297789162627556, 1.3496000000000002E-10
DataValue, -6.2, 15603.300000000001, 1.20205E-10, 5.78622E-08, 1.1288600264448425, 1.34892E-10
DataValue, -6, 15603.300000000001, 1.20229E-10, 5.8798E-08, , 
DataValue, -5.8, 15603.300000000001, 1.2026400000000002E-10, 6.04808E-08, , 
DataValue, -5.6000000000000005, 15603.300000000001, 1.20287E-10, 6.17842E-08, , 
DataValue, -5.4, 15603.300000000001, 1.20323E-10, 5.9704E-08, , 
DataValue, -5.2, 15603.300000000001, 1.20335E-10, 6.00338E-08, , 
DataValue, -5, 15603.300000000001, 1.20377E-10, 6.11583E-08, , 
DataValue, -4.8, 15603.300000000001, 1.20374E-10, 6.12617E-08, , 
DataValue, -4.6000000000000005, 15603.300000000001, 1.20417E-10, 6.09577E-08, , 
DataValue, -4.4, 15603.300000000001, 1.20444E-10, 5.98888E-08, , 
DataValue, -4.2, 15603.300000000001, 1.20476E-10, 6.19511E-08, , 
DataValue, -4, 15603.300000000001, 1.2046900000000002E-10, 6.3413400000000009E-08, , 
DataValue, -3.8000000000000003, 15603.300000000001, 1.20491E-10, 6.27776E-08, , 
DataValue, -3.6, 15603.300000000001, 1.20512E-10, 6.19253E-08, , 
DataValue, -3.4, 15603.300000000001, 1.2052300000000001E-10, 6.21021E-08, , 
DataValue, -3.2, 15603.300000000001, 1.20552E-10, 6.32664E-08, , 
DataValue, -3, 15603.300000000001, 1.2057800000000002E-10, 6.45538E-08, , 
DataValue, -2.8000000000000003, 15603.300000000001, 1.20579E-10, 6.49949E-08, , 
DataValue, -2.6, 15603.300000000001, 1.2060200000000002E-10, 6.65685E-08, , 
DataValue, -2.4, 15603.300000000001, 1.20615E-10, 6.68208E-08, , 
DataValue, -2.2, 15603.300000000001, 1.20655E-10, 6.8756E-08, , 
DataValue, -2, 15603.300000000001, 1.2068600000000002E-10, 7.0856E-08, , 
DataValue, -1.8, 15603.300000000001, 1.20714E-10, 7.3727E-08, , 
DataValue, -1.6, 15603.300000000001, 1.2075600000000002E-10, 7.60138E-08, , 
DataValue, -1.4000000000000001, 15603.300000000001, 1.208E-10, 7.93497E-08, , 
DataValue, -1.2, 15603.300000000001, 1.20848E-10, 7.84993E-08, , 
DataValue, -1, 15603.300000000001, 1.20928E-10, 8.07643E-08, , 
DataValue, -0.8, 15603.300000000001, 1.21059E-10, 8.14041E-08, , 
DataValue, -0.6, 15603.300000000001, 1.2118600000000002E-10, 8.49446E-08, , 
DataValue, -0.4, 15603.300000000001, 1.2141500000000001E-10, 8.34604E-08, , 
DataValue, -0.2, 15603.300000000001, 1.21728E-10, 8.49346E-08, , 
DataValue, 0, 15603.300000000001, 1.22185E-10, 8.43624E-08, , 
DataValue, 0.2, 15603.300000000001, 1.22915E-10, 8.18431E-08, , 
DataValue, 0.4, 15603.300000000001, 1.23942E-10, 7.78675E-08, , 
DataValue, 0.6, 15603.300000000001, 1.25202E-10, 7.51515E-08, , 
DataValue, 0.8, 15603.300000000001, 1.26563E-10, 7.52926E-08, , 
DataValue, 1, 15603.300000000001, 1.27862E-10, 7.3727E-08, , 
DataValue, 1.2, 15603.300000000001, 1.2900600000000002E-10, 7.4619100000000007E-08, , 
DataValue, 1.4000000000000001, 15603.300000000001, 1.29966E-10, 7.4321000000000008E-08, , 
DataValue, 1.6, 15603.300000000001, 1.3074100000000001E-10, 7.34071E-08, , 
DataValue, 1.8, 15603.300000000001, 1.3136200000000002E-10, 7.51714E-08, , 
DataValue, 2, 15603.300000000001, 1.31894E-10, 7.47661E-08, , 
DataValue, 2.2, 15603.300000000001, 1.3227500000000002E-10, 7.35343E-08, , 
DataValue, 2.4, 15603.300000000001, 1.32635E-10, 7.4505800000000008E-08, , 
DataValue, 2.6, 15603.300000000001, 1.32928E-10, 7.43965E-08, , 
DataValue, 2.8000000000000003, 15603.300000000001, 1.33151E-10, 7.50442E-08, , 
DataValue, 3, 15603.300000000001, 1.3336900000000002E-10, 7.46648E-08, , 
DataValue, 3.2, 15603.300000000001, 1.3354E-10, 7.6745E-08, , 
DataValue, 3.4, 15603.300000000001, 1.33681E-10, 7.629E-08, , 
DataValue, 3.6, 15603.300000000001, 1.3380000000000002E-10, 7.38204E-08, , 
DataValue, 3.8000000000000003, 15603.300000000001, 1.3393000000000002E-10, 7.6417100000000007E-08, , 
DataValue, 4, 15603.300000000001, 1.34028E-10, 7.57635E-08, , 
DataValue, 4.2, 15603.300000000001, 1.3412200000000002E-10, 7.57416E-08, , 
DataValue, 4.4, 15603.300000000001, 1.34215E-10, 7.29899E-08, , 
DataValue, 4.6000000000000005, 15603.300000000001, 1.3428200000000002E-10, 7.48396E-08, , 
DataValue, 4.8, 15603.300000000001, 1.34341E-10, 7.56204E-08, , 
DataValue, 5, 15603.300000000001, 1.3440900000000002E-10, 7.35978E-08, , 
DataValue, 5.2, 15603.300000000001, 1.34462E-10, 7.52568E-08, , 
DataValue, 5.4, 15603.300000000001, 1.34515E-10, 7.54098E-08, , 
DataValue, 5.6000000000000005, 15603.300000000001, 1.34551E-10, 7.34747E-08, , 
DataValue, 5.8, 15603.300000000001, 1.3459200000000002E-10, 7.43032E-08, , 
DataValue, 6, 15603.300000000001, 1.34637E-10, 7.81059E-08, , 
DataValue, 6.2, 15603.300000000001, 1.34676E-10, 7.61867E-08, , 
DataValue, 6.4, 15603.300000000001, 1.3468600000000002E-10, 7.66059E-08, , 
DataValue, 6.6000000000000005, 15603.300000000001, 1.3472200000000002E-10, 7.52668E-08, , 
DataValue, 6.8, 15603.300000000001, 1.34753E-10, 7.659E-08, , 
DataValue, 7, 15603.300000000001, 1.34798E-10, 7.36952E-08, , 
DataValue, 7.2, 15603.300000000001, 1.34811E-10, 7.59721E-08, , 
DataValue, 7.4, 15603.300000000001, 1.3482200000000002E-10, 7.51535E-08, , 
DataValue, 7.6000000000000005, 15603.300000000001, 1.34869E-10, 7.24971E-08, , 
DataValue, 7.8, 15603.300000000001, 1.3488500000000002E-10, 7.4944900000000008E-08, , 
DataValue, 8, 15603.300000000001, 1.34914E-10, 7.5678E-08, , 
DataValue, 8.2, 15603.300000000001, 1.3493600000000002E-10, 7.04229E-08, , 
DataValue, 8.4, 15603.300000000001, 1.34962E-10, 7.47244E-08, , 
DataValue, 8.6, 15603.300000000001, 1.34973E-10, 7.51595E-08, , 
DataValue, 8.8, 15603.300000000001, 1.3498E-10, 7.5058200000000007E-08, , 
DataValue, 9, 15603.300000000001, 1.3501700000000002E-10, 7.46767E-08, , 
DataValue, 9.2000000000000011, 15603.300000000001, 1.3498700000000002E-10, 7.3947500000000008E-08, , 
DataValue, 9.4, 15603.300000000001, 1.3502300000000002E-10, 7.5350200000000007E-08, , 
DataValue, 9.6, 15603.300000000001, 1.35046E-10, 7.52946E-08, , 
DataValue, 9.8, 15603.300000000001, 1.35043E-10, 7.45456E-08, , 
DataValue, 10, 15603.300000000001, 1.3507500000000002E-10, 7.42495E-08, , 
DataValue, -10, 17901, 1.19563E-10, 8.54324E-08, , 
DataValue, -9.8, 17901, 1.19575E-10, 7.90209E-08, , 
DataValue, -9.6, 17901, 1.19573E-10, 7.86335E-08, , 
DataValue, -9.4, 17901, 1.1966200000000002E-10, 7.63426E-08, , 
DataValue, -9.2000000000000011, 17901, 1.1968300000000002E-10, 7.765E-08, , 
DataValue, -9, 17901, 1.1971300000000002E-10, 7.68076E-08, , 
DataValue, -8.8, 17901, 1.1979E-10, 7.6026700000000007E-08, , 
DataValue, -8.6, 17901, 1.19811E-10, 7.78765E-08, , 
DataValue, -8.4, 17901, 1.1985E-10, 7.48128E-08, , 
DataValue, -8.2, 17901, 1.1987600000000002E-10, 7.75645E-08, , 
DataValue, -8, 17901, 1.1991500000000002E-10, 7.80771E-08, , 
DataValue, -7.8, 17901, 1.19979E-10, 7.50075E-08, , 
DataValue, -7.6000000000000005, 17901, 1.19982E-10, 7.6277100000000007E-08, , 
DataValue, -7.4, 17901, 1.20001E-10, 7.6597000000000008E-08, , 
DataValue, -7.2, 17901, 1.2006200000000001E-10, 7.6163800000000009E-08, , 
DataValue, -7, 17901, 1.20066E-10, 7.30425E-08, , 
DataValue, -6.8, 17901, 1.20115E-10, 7.41929E-08, , 
DataValue, -6.6000000000000005, 17901, 1.20149E-10, 7.55698E-08, , 
DataValue, -6.4, 17901, 1.20172E-10, 7.85063E-08, , 
DataValue, -6.2, 17901, 1.20196E-10, 7.92792E-08, , 
DataValue, -6, 17901, 1.20215E-10, 7.58936E-08, , 
DataValue, -5.8, 17901, 1.2025500000000002E-10, 7.60724E-08, , 
DataValue, -5.6000000000000005, 17901, 1.2028E-10, 7.6595E-08, , 
DataValue, -5.4, 17901, 1.2028500000000001E-10, 7.42922E-08, , 
DataValue, -5.2, 17901, 1.20377E-10, 7.78228E-08, , 
DataValue, -5, 17901, 1.20375E-10, 7.7409600000000008E-08, , 
DataValue, -4.8, 17901, 1.2036400000000002E-10, 7.96845E-08, , 
DataValue, -4.6000000000000005, 17901, 1.20417E-10, 7.8103000000000008E-08, , 
DataValue, -4.4, 17901, 1.2043900000000002E-10, 7.63188E-08, , 
DataValue, -4.2, 17901, 1.20431E-10, 7.69367E-08, , 
DataValue, -4, 17901, 1.2047200000000002E-10, 8.07276E-08, , 
DataValue, -3.8000000000000003, 17901, 1.20467E-10, 7.92593E-08, , 
DataValue, -3.6, 17901, 1.2051700000000001E-10, 7.90149E-08, , 
DataValue, -3.4, 17901, 1.20543E-10, 8.15441E-08, , 
DataValue, -3.2, 17901, 1.2054100000000001E-10, 8.34575E-08, , 
DataValue, -3, 17901, 1.20568E-10, 7.90467E-08, , 
DataValue, -2.8000000000000003, 17901, 1.2058E-10, 8.38806E-08, , 
DataValue, -2.6, 17901, 1.20573E-10, 8.57065E-08, , 
DataValue, -2.4, 17901, 1.2063200000000002E-10, 8.16137E-08, , 
DataValue, -2.2, 17901, 1.2063800000000002E-10, 8.8702700000000007E-08, , 
DataValue, -2, 17901, 1.20688E-10, 8.9332500000000009E-08, , 
DataValue, -1.8, 17901, 1.2068600000000002E-10, 9.19134E-08, , 
DataValue, -1.6, 17901, 1.2076500000000002E-10, 9.2374300000000007E-08, , 
DataValue, -1.4000000000000001, 17901, 1.20796E-10, 9.50605E-08, , 
DataValue, -1.2, 17901, 1.2084300000000002E-10, 9.73692E-08, , 
DataValue, -1, 17901, 1.2094200000000002E-10, 1.03099E-07, , 
DataValue, -0.8, 17901, 1.21019E-10, 1.02644E-07, , 
DataValue, -0.6, 17901, 1.2118900000000001E-10, 1.01945E-07, , 
DataValue, -0.4, 17901, 1.21386E-10, 1.03471E-07, , 
DataValue, -0.2, 17901, 1.2168300000000001E-10, 1.06453E-07, , 
DataValue, 0, 17901, 1.22188E-10, 1.0346299999999999E-07, , 
DataValue, 0.2, 17901, 1.22909E-10, 1.01696E-07, , 
DataValue, 0.4, 17901, 1.2393200000000002E-10, 1.00506E-07, , 
DataValue, 0.6, 17901, 1.2517900000000002E-10, 9.81103E-08, , 
DataValue, 0.8, 17901, 1.26567E-10, 9.64771E-08, , 
DataValue, 1, 17901, 1.27848E-10, 9.61274E-08, , 
DataValue, 1.2, 17901, 1.29002E-10, 9.543E-08, , 
DataValue, 1.4000000000000001, 17901, 1.29936E-10, 9.28968E-08, , 
DataValue, 1.6, 17901, 1.3073500000000001E-10, 9.5883E-08, , 
DataValue, 1.8, 17901, 1.31352E-10, 9.49135E-08, , 
DataValue, 2, 17901, 1.31897E-10, 9.63261E-08, , 
DataValue, 2.2, 17901, 1.32297E-10, 9.59466E-08, , 
DataValue, 2.4, 17901, 1.3261900000000002E-10, 9.60062E-08, , 
DataValue, 2.6, 17901, 1.32922E-10, 9.6296300000000007E-08, , 
DataValue, 2.8000000000000003, 17901, 1.3316100000000002E-10, 9.19014E-08, , 
DataValue, 3, 17901, 1.33355E-10, 9.51857E-08, , 
DataValue, 3.2, 17901, 1.3352600000000002E-10, 9.62744E-08, , 
DataValue, 3.4, 17901, 1.3367900000000002E-10, 9.5674400000000009E-08, , 
DataValue, 3.6, 17901, 1.33843E-10, 9.83964E-08, , 
DataValue, 3.8000000000000003, 17901, 1.3391100000000002E-10, 1.00177E-07, , 
DataValue, 4, 17901, 1.34031E-10, 9.58274E-08, , 
DataValue, 4.2, 17901, 1.34105E-10, 9.63976E-08, , 
DataValue, 4.4, 17901, 1.3423100000000002E-10, 9.89626E-08, , 
DataValue, 4.6000000000000005, 17901, 1.34272E-10, 9.7836100000000009E-08, , 
DataValue, 4.8, 17901, 1.34332E-10, 9.58393E-08, , 
DataValue, 5, 17901, 1.34407E-10, 9.56804E-08, , 
DataValue, 5.2, 17901, 1.34468E-10, 9.86884E-08, , 
DataValue, 5.4, 17901, 1.34521E-10, 9.58493E-08, , 
DataValue, 5.6000000000000005, 17901, 1.3456200000000002E-10, 9.43393E-08, , 
DataValue, 5.8, 17901, 1.3461600000000001E-10, 9.6485000000000007E-08, , 
DataValue, 6, 17901, 1.34645E-10, 9.9501E-08, , 
DataValue, 6.2, 17901, 1.34673E-10, 9.60003E-08, , 
DataValue, 6.4, 17901, 1.34733E-10, 9.84023E-08, , 
DataValue, 6.6000000000000005, 17901, 1.3475E-10, 9.73732E-08, , 
DataValue, 6.8, 17901, 1.34781E-10, 9.8950700000000007E-08, , 
DataValue, 7, 17901, 1.3479700000000002E-10, 9.6185E-08, , 
DataValue, 7.2, 17901, 1.34835E-10, 9.6797E-08, , 
DataValue, 7.4, 17901, 1.34844E-10, 9.8603E-08, , 
DataValue, 7.6000000000000005, 17901, 1.3485100000000001E-10, 9.50744E-08, , 
DataValue, 7.8, 17901, 1.3491E-10, 9.72738E-08, , 
DataValue, 8, 17901, 1.34935E-10, 9.66778E-08, , 
DataValue, 8.2, 17901, 1.34944E-10, 9.73751E-08, , 
DataValue, 8.4, 17901, 1.3496600000000002E-10, 1.00741E-07, , 
DataValue, 8.6, 17901, 1.3501100000000002E-10, 9.17961E-08, , 
DataValue, 8.8, 17901, 1.34998E-10, 9.62009E-08, , 
DataValue, 9, 17901, 1.34988E-10, 9.45241E-08, , 
DataValue, 9.2000000000000011, 17901, 1.3501100000000002E-10, 9.8605E-08, , 
DataValue, 9.4, 17901, 1.35046E-10, 9.56983E-08, , 
