
SetupTitle, MFCV-3  Light
PrimitiveTest, C-V Sweep
TestParameter, Channel.UnitTyp, CMU, SMU
TestParameter, Channel.Unit, CMU1:MF, SMU1:HP
TestParameter, Channel.IName, , I1
TestParameter, Channel.VName, VBias, V1
TestParameter, Channel.Mode, , V
TestParameter, Channel.Func, VAR1, CONST
TestParameter, Channel.Index, 
TestParameter, Channel.Time, 
TestParameter, Measurement.Primary.Locus, Single
TestParameter, Measurement.Primary.Scale, LINEAR
TestParameter, Measurement.Primary.Start, -10
TestParameter, Measurement.Primary.Stop, 10
TestParameter, Measurement.Primary.Step, 0.2
TestParameter, Measurement.Aborting.Condition, CONTINUE AT ANY
TestParameter, Measurement.PostOutput.Value, START
TestParameter, Measurement.PostOutput.Retention, OFF
TestParameter, Measurement.Secondary.ACLevel, 0.03
TestParameter, Measurement.Secondary.FName, Freq
TestParameter, Measurement.Secondary.Frequency, 243462.6, 279314.2, 320445.30000000005, 367633.2, 421769.80000000005, 483878.5, 555133.1, 636880.4, 730665.70000000007, 838261.5, 961701, 1110000, 1260000, 1452188, 1666033, 1911368, 2200000, 2530000, 2886202, 3311217
TestParameter, Measurement.Bias.Source, 0, 17.900000000000002
TestParameter, Measurement.ImpedanceMode.Model, Cp-G
TestParameter, Measurement.ImpedanceMode.CName, C
TestParameter, Measurement.ImpedanceMode.GName, G
TestParameter, Measurement.ImpedanceMode.DName, D
TestParameter, Measurement.ImpedanceMode.RName, R
TestParameter, Measurement.ImpedanceMode.ZName, Z
TestParameter, Measurement.ImpedanceMode.ThName, Theta
TestParameter, Measurement.Monitor.Unit, CMU1:MF, SMU1:HP
TestParameter, Measurement.Monitor.RangingMode, AUTO, LIMITED
TestParameter, Measurement.Monitor.RangeBoundary, 50, 1nA
TestParameter, Measurement.Monitor.AcMonitorSymbol, 
TestParameter, Measurement.Monitor.DcMonitorSymbol, 
TestParameter, Measurement.Timing.Hold, 0
TestParameter, Measurement.Timing.Delay, 0
TestParameter, Measurement.Adc.UnitType, Cmu, Smu
TestParameter, Measurement.Adc.HighResolution.Mode, AUTO, PLC
TestParameter, Measurement.Adc.HighResolution.Coeff, 25, 10
TestParameter, Measurement.WaitTime.Source.Coeff, 1
TestParameter, Measurement.WaitTime.Source.Offset, 0
TestParameter, Measurement.WaitTime.Monitor.Coeff, 1
TestParameter, Measurement.WaitTime.Monitor.Offset, 0
TestParameter, Function.User.Name, Cox
TestParameter, Function.User.Unit, F
TestParameter, Function.User.Definition, max(C)/min(C)
TestParameter, Function.Analysis.Name, Cmax
TestParameter, Function.Analysis.Unit, F
TestParameter, Function.Analysis.Definition, max(C)
TestParameter, Output.Graph.Enabled, true
TestParameter, Output.Graph.XAxis.Data, VBias
TestParameter, Output.Graph.XAxis.Scale, Linear
TestParameter, Output.Graph.XAxis.Left, -3
TestParameter, Output.Graph.XAxis.Right, 3
TestParameter, Output.Graph.YAxis.Data, C, G
TestParameter, Output.Graph.YAxis.Scale, Linear, Linear
TestParameter, Output.Graph.YAxis.Bottom, 0, -0.001
TestParameter, Output.Graph.YAxis.Top, 1, 0.001
TestParameter, Output.Graph.YAxis.Group, , 
TestParameter, Output.List.Data, VBias, C, Cmax, G, Freq
TestParameter, Output.Scalar.Data, VBias, C, Cmax, Cox, G, Freq
TestParameter, AutoAnalysis.Interpolation, false
TestParameter, AutoAnalysis.Line1.Enabled, false
TestParameter, AutoAnalysis.Line1.Type, 1
TestParameter, AutoAnalysis.Line1.Fix, True
TestParameter, AutoAnalysis.Line1.YAxis, 0
TestParameter, AutoAnalysis.Line1.Point1.Type, 0
TestParameter, AutoAnalysis.Line1.Point1.XY.X, 
TestParameter, AutoAnalysis.Line1.Point1.XY.Y, 
TestParameter, AutoAnalysis.Line1.Point1.Data.Var, 
TestParameter, AutoAnalysis.Line1.Point1.Data.Condition, 
TestParameter, AutoAnalysis.Line1.Point1.Data.Start, false
TestParameter, AutoAnalysis.Line1.Point1.Data.StartVar, 
TestParameter, AutoAnalysis.Line1.Point1.Data.StartCondition, 
TestParameter, AutoAnalysis.Line1.Point2.Type, 0
TestParameter, AutoAnalysis.Line1.Point2.XY.X, 
TestParameter, AutoAnalysis.Line1.Point2.XY.Y, 
TestParameter, AutoAnalysis.Line1.Point2.Data.Var, 
TestParameter, AutoAnalysis.Line1.Point2.Data.Condition, 
TestParameter, AutoAnalysis.Line1.Point2.Data.Start, false
TestParameter, AutoAnalysis.Line1.Point2.Data.StartVar, 
TestParameter, AutoAnalysis.Line1.Point2.Data.StartCondition, 
TestParameter, AutoAnalysis.Line1.GradientExpr, 0
TestParameter, AutoAnalysis.Line2.Enabled, false
TestParameter, AutoAnalysis.Line2.Type, 1
TestParameter, AutoAnalysis.Line2.Fix, True
TestParameter, AutoAnalysis.Line2.YAxis, 0
TestParameter, AutoAnalysis.Line2.Point1.Type, 0
TestParameter, AutoAnalysis.Line2.Point1.XY.X, 
TestParameter, AutoAnalysis.Line2.Point1.XY.Y, 
TestParameter, AutoAnalysis.Line2.Point1.Data.Var, 
TestParameter, AutoAnalysis.Line2.Point1.Data.Condition, 
TestParameter, AutoAnalysis.Line2.Point1.Data.Start, false
TestParameter, AutoAnalysis.Line2.Point1.Data.StartVar, 
TestParameter, AutoAnalysis.Line2.Point1.Data.StartCondition, 
TestParameter, AutoAnalysis.Line2.Point2.Type, 0
TestParameter, AutoAnalysis.Line2.Point2.XY.X, 
TestParameter, AutoAnalysis.Line2.Point2.XY.Y, 
TestParameter, AutoAnalysis.Line2.Point2.Data.Var, 
TestParameter, AutoAnalysis.Line2.Point2.Data.Condition, 
TestParameter, AutoAnalysis.Line2.Point2.Data.Start, false
TestParameter, AutoAnalysis.Line2.Point2.Data.StartVar, 
TestParameter, AutoAnalysis.Line2.Point2.Data.StartCondition, 
TestParameter, AutoAnalysis.Line2.GradientExpr, 0
TestParameter, AutoAnalysis.Marker.Enabled, false
TestParameter, AutoAnalysis.Marker.Data.Var, 
TestParameter, AutoAnalysis.Marker.Data.Condition, 
TestParameter, AutoAnalysis.Marker.Data.Start, false
TestParameter, AutoAnalysis.Marker.Data.StartVar, 
TestParameter, AutoAnalysis.Marker.Data.StartCondition, 
MetaData, TestRecord.EntryPoint, true
MetaData, TestRecord.RecordTime, 11/02/2022 15:02:41
MetaData, TestRecord.TestTarget, #1-2_light
MetaData, TestRecord.IterationIndex, 4
MetaData, TestRecord.Preservation, true
MetaData, TestRecord.Flag, 
MetaData, TestRecord.Remarks, 
MetaData, TestRecord.LinkKey, 97447232-e522-4bb2-8ab3-2909eb82c1df
Dimension1, 101, 101, 101, 101, 101, 101
Dimension2, 20, 20, 20, 20, 20, 20
DataName, VBias, Freq, C, G, Cox, Cmax
DataValue, -10, 243462.6, 1.19459E-10, 1.3853100000000001E-05, 1.1285964222034339, 1.3482100000000002E-10
DataValue, -9.8, 243462.6, 1.19507E-10, 1.3869200000000001E-05, 1.1284568097686807, 1.3474000000000002E-10
DataValue, -9.6, 243462.6, 1.19557E-10, 1.38772E-05, 1.1274289734655589, 1.34606E-10
DataValue, -9.4, 243462.6, 1.19587E-10, 1.3947E-05, 1.1262013087667262, 1.34411E-10
DataValue, -9.2000000000000011, 243462.6, 1.1963100000000001E-10, 1.3897800000000001E-05, 1.1251477776752998, 1.34193E-10
DataValue, -9, 243462.6, 1.1969E-10, 1.3902500000000001E-05, 1.1222933463090512, 1.33774E-10
DataValue, -8.8, 243462.6, 1.19721E-10, 1.3918800000000001E-05, 1.1205953291370079, 1.33343E-10
DataValue, -8.6, 243462.6, 1.1976E-10, 1.39436E-05, 1.117600505156809, 1.32743E-10
DataValue, -8.4, 243462.6, 1.19807E-10, 1.3932600000000001E-05, 1.1132984965008401, 1.3187800000000002E-10
DataValue, -8.2, 243462.6, 1.1983600000000001E-10, 1.39362E-05, 1.1063420666988555, 1.30607E-10
DataValue, -8, 243462.6, 1.1986000000000001E-10, 1.39462E-05, 1.0983092446141258, 1.2888E-10
DataValue, -7.8, 243462.6, 1.19892E-10, 1.39077E-05, 1.0894553841916828, 1.2658600000000002E-10
DataValue, -7.6000000000000005, 243462.6, 1.19938E-10, 1.3882300000000001E-05, 1.0777449103880286, 1.23876E-10
DataValue, -7.4, 243462.6, 1.1997E-10, 1.38859E-05, 1.0601346562721474, 1.1966800000000002E-10
DataValue, -7.2, 243462.6, 1.2000800000000002E-10, 1.38779E-05, 1.04373212366326, 1.14583E-10
DataValue, -7, 243462.6, 1.20028E-10, 1.3907200000000001E-05, 1.018481306427419, 1.07958E-10
DataValue, -6.8, 243462.6, 1.2007E-10, 1.39228E-05, 1.0375032873833043, 1.0138700000000001E-10
DataValue, -6.6000000000000005, 243462.6, 1.20088E-10, 1.38788E-05, 1.0748976056446504, 9.3507599999999993E-11
DataValue, -6.4, 243462.6, 1.20136E-10, 1.39088E-05, 1.1246518152907994, 8.3214E-11
DataValue, -6.2, 243462.6, 1.20169E-10, 1.3971E-05, 1.2111900301289276, 6.78178E-11
DataValue, -6, 243462.6, 1.2017700000000002E-10, 1.3923300000000001E-05, , 
DataValue, -5.8, 243462.6, 1.2021600000000002E-10, 1.39598E-05, , 
DataValue, -5.6000000000000005, 243462.6, 1.2024300000000002E-10, 1.3966E-05, , 
DataValue, -5.4, 243462.6, 1.2027900000000001E-10, 1.39685E-05, , 
DataValue, -5.2, 243462.6, 1.2030600000000001E-10, 1.3944300000000001E-05, , 
DataValue, -5, 243462.6, 1.2034600000000002E-10, 1.39763E-05, , 
DataValue, -4.8, 243462.6, 1.2035500000000002E-10, 1.39903E-05, , 
DataValue, -4.6000000000000005, 243462.6, 1.2038500000000002E-10, 1.39776E-05, , 
DataValue, -4.4, 243462.6, 1.20396E-10, 1.40039E-05, , 
DataValue, -4.2, 243462.6, 1.20416E-10, 1.39847E-05, , 
DataValue, -4, 243462.6, 1.20443E-10, 1.3997600000000001E-05, , 
DataValue, -3.8000000000000003, 243462.6, 1.20456E-10, 1.40189E-05, , 
DataValue, -3.6, 243462.6, 1.20482E-10, 1.40155E-05, , 
DataValue, -3.4, 243462.6, 1.20503E-10, 1.40156E-05, , 
DataValue, -3.2, 243462.6, 1.20507E-10, 1.4060900000000001E-05, , 
DataValue, -3, 243462.6, 1.2051700000000001E-10, 1.40768E-05, , 
DataValue, -2.8000000000000003, 243462.6, 1.2053800000000001E-10, 1.40344E-05, , 
DataValue, -2.6, 243462.6, 1.2054500000000002E-10, 1.40521E-05, , 
DataValue, -2.4, 243462.6, 1.2055E-10, 1.40582E-05, , 
DataValue, -2.2, 243462.6, 1.2058100000000002E-10, 1.41167E-05, , 
DataValue, -2, 243462.6, 1.2058400000000002E-10, 1.40797E-05, , 
DataValue, -1.8, 243462.6, 1.2060500000000002E-10, 1.40912E-05, , 
DataValue, -1.6, 243462.6, 1.2062600000000002E-10, 1.41375E-05, , 
DataValue, -1.4000000000000001, 243462.6, 1.2066E-10, 1.4126600000000001E-05, , 
DataValue, -1.2, 243462.6, 1.2068900000000002E-10, 1.41363E-05, , 
DataValue, -1, 243462.6, 1.20739E-10, 1.4141100000000001E-05, , 
DataValue, -0.8, 243462.6, 1.20796E-10, 1.4232400000000001E-05, , 
DataValue, -0.6, 243462.6, 1.20916E-10, 1.4310300000000001E-05, , 
DataValue, -0.4, 243462.6, 1.21091E-10, 1.4386100000000001E-05, , 
DataValue, -0.2, 243462.6, 1.2136400000000002E-10, 1.4448000000000001E-05, , 
DataValue, 0, 243462.6, 1.2183100000000002E-10, 1.46173E-05, , 
DataValue, 0.2, 243462.6, 1.22574E-10, 1.4867400000000001E-05, , 
DataValue, 0.4, 243462.6, 1.23587E-10, 1.51948E-05, , 
DataValue, 0.6, 243462.6, 1.24876E-10, 1.5613400000000002E-05, , 
DataValue, 0.8, 243462.6, 1.2624900000000002E-10, 1.60734E-05, , 
DataValue, 1, 243462.6, 1.2755900000000001E-10, 1.64883E-05, , 
DataValue, 1.2, 243462.6, 1.28721E-10, 1.68513E-05, , 
DataValue, 1.4000000000000001, 243462.6, 1.29659E-10, 1.71271E-05, , 
DataValue, 1.6, 243462.6, 1.3045200000000002E-10, 1.7413E-05, , 
DataValue, 1.8, 243462.6, 1.3107900000000002E-10, 1.75383E-05, , 
DataValue, 2, 243462.6, 1.31589E-10, 1.77075E-05, , 
DataValue, 2.2, 243462.6, 1.3201600000000002E-10, 1.7764300000000002E-05, , 
DataValue, 2.4, 243462.6, 1.3235700000000002E-10, 1.77948E-05, , 
DataValue, 2.6, 243462.6, 1.32633E-10, 1.79043E-05, , 
DataValue, 2.8000000000000003, 243462.6, 1.32886E-10, 1.79274E-05, , 
DataValue, 3, 243462.6, 1.33085E-10, 1.79335E-05, , 
DataValue, 3.2, 243462.6, 1.33259E-10, 1.79797E-05, , 
DataValue, 3.4, 243462.6, 1.33421E-10, 1.80044E-05, , 
DataValue, 3.6, 243462.6, 1.33569E-10, 1.79895E-05, , 
DataValue, 3.8000000000000003, 243462.6, 1.3365800000000002E-10, 1.80601E-05, , 
DataValue, 4, 243462.6, 1.33765E-10, 1.80583E-05, , 
DataValue, 4.2, 243462.6, 1.33871E-10, 1.81062E-05, , 
DataValue, 4.4, 243462.6, 1.33949E-10, 1.81249E-05, , 
DataValue, 4.6000000000000005, 243462.6, 1.34016E-10, 1.80945E-05, , 
DataValue, 4.8, 243462.6, 1.34091E-10, 1.81065E-05, , 
DataValue, 5, 243462.6, 1.34148E-10, 1.81318E-05, , 
DataValue, 5.2, 243462.6, 1.34205E-10, 1.81128E-05, , 
DataValue, 5.4, 243462.6, 1.34254E-10, 1.8136700000000002E-05, , 
DataValue, 5.6000000000000005, 243462.6, 1.3428800000000002E-10, 1.81498E-05, , 
DataValue, 5.8, 243462.6, 1.34362E-10, 1.81245E-05, , 
DataValue, 6, 243462.6, 1.3438400000000001E-10, 1.81183E-05, , 
DataValue, 6.2, 243462.6, 1.34404E-10, 1.81681E-05, , 
DataValue, 6.4, 243462.6, 1.3445400000000002E-10, 1.817E-05, , 
DataValue, 6.6000000000000005, 243462.6, 1.3449000000000002E-10, 1.81744E-05, , 
DataValue, 6.8, 243462.6, 1.3450800000000002E-10, 1.8190700000000002E-05, , 
DataValue, 7, 243462.6, 1.3454400000000002E-10, 1.81222E-05, , 
DataValue, 7.2, 243462.6, 1.34576E-10, 1.81231E-05, , 
DataValue, 7.4, 243462.6, 1.3459200000000002E-10, 1.8149200000000002E-05, , 
DataValue, 7.6000000000000005, 243462.6, 1.34618E-10, 1.8167700000000002E-05, , 
DataValue, 7.8, 243462.6, 1.34643E-10, 1.8172200000000002E-05, , 
DataValue, 8, 243462.6, 1.34657E-10, 1.81851E-05, , 
DataValue, 8.2, 243462.6, 1.34682E-10, 1.8201700000000002E-05, , 
DataValue, 8.4, 243462.6, 1.3469500000000002E-10, 1.8221600000000002E-05, , 
DataValue, 8.6, 243462.6, 1.3471900000000002E-10, 1.81641E-05, , 
DataValue, 8.8, 243462.6, 1.3472200000000002E-10, 1.81838E-05, , 
DataValue, 9, 243462.6, 1.34763E-10, 1.8206300000000002E-05, , 
DataValue, 9.2000000000000011, 243462.6, 1.34768E-10, 1.8197100000000002E-05, , 
DataValue, 9.4, 243462.6, 1.34792E-10, 1.8223200000000002E-05, , 
DataValue, 9.6, 243462.6, 1.34777E-10, 1.82196E-05, , 
DataValue, 9.8, 243462.6, 1.34813E-10, 1.82237E-05, , 
DataValue, 10, 243462.6, 1.3482100000000002E-10, 1.82135E-05, , 
DataValue, -10, 279314.2, 1.1940200000000001E-10, 1.82735E-05, , 
DataValue, -9.8, 279314.2, 1.19465E-10, 1.82568E-05, , 
DataValue, -9.6, 279314.2, 1.19525E-10, 1.82736E-05, , 
DataValue, -9.4, 279314.2, 1.1956E-10, 1.82642E-05, , 
DataValue, -9.2000000000000011, 279314.2, 1.19617E-10, 1.83094E-05, , 
DataValue, -9, 279314.2, 1.19646E-10, 1.83069E-05, , 
DataValue, -8.8, 279314.2, 1.19693E-10, 1.83596E-05, , 
DataValue, -8.6, 279314.2, 1.1973400000000002E-10, 1.83845E-05, , 
DataValue, -8.4, 279314.2, 1.19763E-10, 1.83829E-05, , 
DataValue, -8.2, 279314.2, 1.19804E-10, 1.84023E-05, , 
DataValue, -8, 279314.2, 1.19837E-10, 1.83971E-05, , 
DataValue, -7.8, 279314.2, 1.19871E-10, 1.84483E-05, , 
DataValue, -7.6000000000000005, 279314.2, 1.1990000000000002E-10, 1.8465800000000002E-05, , 
DataValue, -7.4, 279314.2, 1.19946E-10, 1.8464200000000002E-05, , 
DataValue, -7.2, 279314.2, 1.1998100000000002E-10, 1.8496700000000002E-05, , 
DataValue, -7, 279314.2, 1.2001100000000002E-10, 1.8441100000000002E-05, , 
DataValue, -6.8, 279314.2, 1.2004100000000002E-10, 1.8461300000000002E-05, , 
DataValue, -6.6000000000000005, 279314.2, 1.2008300000000001E-10, 1.84407E-05, , 
DataValue, -6.4, 279314.2, 1.20112E-10, 1.8436E-05, , 
DataValue, -6.2, 279314.2, 1.20136E-10, 1.8456600000000002E-05, , 
DataValue, -6, 279314.2, 1.20167E-10, 1.8479600000000002E-05, , 
DataValue, -5.8, 279314.2, 1.2020100000000002E-10, 1.84177E-05, , 
DataValue, -5.6000000000000005, 279314.2, 1.20229E-10, 1.84732E-05, , 
DataValue, -5.4, 279314.2, 1.20266E-10, 1.84407E-05, , 
DataValue, -5.2, 279314.2, 1.2028200000000001E-10, 1.84821E-05, , 
DataValue, -5, 279314.2, 1.20295E-10, 1.85417E-05, , 
DataValue, -4.8, 279314.2, 1.2031900000000002E-10, 1.85101E-05, , 
DataValue, -4.6000000000000005, 279314.2, 1.2035E-10, 1.85222E-05, , 
DataValue, -4.4, 279314.2, 1.2036700000000002E-10, 1.85055E-05, , 
DataValue, -4.2, 279314.2, 1.20399E-10, 1.84764E-05, , 
DataValue, -4, 279314.2, 1.20413E-10, 1.8499E-05, , 
DataValue, -3.8000000000000003, 279314.2, 1.2043300000000002E-10, 1.85731E-05, , 
DataValue, -3.6, 279314.2, 1.20446E-10, 1.85688E-05, , 
DataValue, -3.4, 279314.2, 1.20459E-10, 1.8581E-05, , 
DataValue, -3.2, 279314.2, 1.2049300000000002E-10, 1.86244E-05, , 
DataValue, -3, 279314.2, 1.2049600000000002E-10, 1.85981E-05, , 
DataValue, -2.8000000000000003, 279314.2, 1.2050200000000002E-10, 1.86211E-05, , 
DataValue, -2.6, 279314.2, 1.2052900000000001E-10, 1.8608100000000002E-05, , 
DataValue, -2.4, 279314.2, 1.2054400000000001E-10, 1.86509E-05, , 
DataValue, -2.2, 279314.2, 1.20556E-10, 1.86398E-05, , 
DataValue, -2, 279314.2, 1.2055400000000002E-10, 1.86557E-05, , 
DataValue, -1.8, 279314.2, 1.2058100000000002E-10, 1.86572E-05, , 
DataValue, -1.6, 279314.2, 1.20612E-10, 1.86842E-05, , 
DataValue, -1.4000000000000001, 279314.2, 1.2063200000000002E-10, 1.8678900000000002E-05, , 
DataValue, -1.2, 279314.2, 1.20655E-10, 1.86989E-05, , 
DataValue, -1, 279314.2, 1.20697E-10, 1.87202E-05, , 
DataValue, -0.8, 279314.2, 1.20769E-10, 1.87876E-05, , 
DataValue, -0.6, 279314.2, 1.20881E-10, 1.88483E-05, , 
DataValue, -0.4, 279314.2, 1.21041E-10, 1.8944900000000002E-05, , 
DataValue, -0.2, 279314.2, 1.2132200000000002E-10, 1.9060800000000002E-05, , 
DataValue, 0, 279314.2, 1.2179800000000002E-10, 1.92981E-05, , 
DataValue, 0.2, 279314.2, 1.2251E-10, 1.9586000000000002E-05, , 
DataValue, 0.4, 279314.2, 1.23536E-10, 2.00035E-05, , 
DataValue, 0.6, 279314.2, 1.24794E-10, 2.0587500000000002E-05, , 
DataValue, 0.8, 279314.2, 1.26162E-10, 2.12288E-05, , 
DataValue, 1, 279314.2, 1.2746600000000002E-10, 2.1781700000000002E-05, , 
DataValue, 1.2, 279314.2, 1.28601E-10, 2.2293300000000002E-05, , 
DataValue, 1.4000000000000001, 279314.2, 1.29556E-10, 2.2637800000000002E-05, , 
DataValue, 1.6, 279314.2, 1.3033200000000002E-10, 2.29672E-05, , 
DataValue, 1.8, 279314.2, 1.3096400000000001E-10, 2.31873E-05, , 
DataValue, 2, 279314.2, 1.31478E-10, 2.33882E-05, , 
DataValue, 2.2, 279314.2, 1.31897E-10, 2.35065E-05, , 
DataValue, 2.4, 279314.2, 1.3223300000000002E-10, 2.3603700000000002E-05, , 
DataValue, 2.6, 279314.2, 1.32536E-10, 2.36664E-05, , 
DataValue, 2.8000000000000003, 279314.2, 1.3277200000000002E-10, 2.37192E-05, , 
DataValue, 3, 279314.2, 1.3297700000000002E-10, 2.37832E-05, , 
DataValue, 3.2, 279314.2, 1.33148E-10, 2.3793600000000002E-05, , 
DataValue, 3.4, 279314.2, 1.33296E-10, 2.38131E-05, , 
DataValue, 3.6, 279314.2, 1.33446E-10, 2.38582E-05, , 
DataValue, 3.8000000000000003, 279314.2, 1.33576E-10, 2.3855500000000002E-05, , 
DataValue, 4, 279314.2, 1.33672E-10, 2.3832400000000002E-05, , 
DataValue, 4.2, 279314.2, 1.33771E-10, 2.38451E-05, , 
DataValue, 4.4, 279314.2, 1.33858E-10, 2.3846200000000002E-05, , 
DataValue, 4.6000000000000005, 279314.2, 1.3391200000000002E-10, 2.39056E-05, , 
DataValue, 4.8, 279314.2, 1.33989E-10, 2.39349E-05, , 
DataValue, 5, 279314.2, 1.34028E-10, 2.39492E-05, , 
DataValue, 5.2, 279314.2, 1.3410400000000002E-10, 2.3975800000000002E-05, , 
DataValue, 5.4, 279314.2, 1.34154E-10, 2.3954500000000002E-05, , 
DataValue, 5.6000000000000005, 279314.2, 1.3420700000000002E-10, 2.39757E-05, , 
DataValue, 5.8, 279314.2, 1.3424600000000002E-10, 2.39462E-05, , 
DataValue, 6, 279314.2, 1.34287E-10, 2.39611E-05, , 
DataValue, 6.2, 279314.2, 1.34328E-10, 2.39738E-05, , 
DataValue, 6.4, 279314.2, 1.3435100000000002E-10, 2.39676E-05, , 
DataValue, 6.6000000000000005, 279314.2, 1.3437600000000002E-10, 2.39855E-05, , 
DataValue, 6.8, 279314.2, 1.3441200000000002E-10, 2.40544E-05, , 
DataValue, 7, 279314.2, 1.3445100000000002E-10, 2.39254E-05, , 
DataValue, 7.2, 279314.2, 1.34474E-10, 2.40152E-05, , 
DataValue, 7.4, 279314.2, 1.34495E-10, 2.40138E-05, , 
DataValue, 7.6000000000000005, 279314.2, 1.34525E-10, 2.3926600000000002E-05, , 
DataValue, 7.8, 279314.2, 1.3454700000000002E-10, 2.40097E-05, , 
DataValue, 8, 279314.2, 1.34573E-10, 2.4014500000000002E-05, , 
DataValue, 8.2, 279314.2, 1.34573E-10, 2.40274E-05, , 
DataValue, 8.4, 279314.2, 1.3461000000000001E-10, 2.40012E-05, , 
DataValue, 8.6, 279314.2, 1.3463400000000001E-10, 2.40322E-05, , 
DataValue, 8.8, 279314.2, 1.34655E-10, 2.39709E-05, , 
DataValue, 9, 279314.2, 1.3465900000000002E-10, 2.39762E-05, , 
DataValue, 9.2000000000000011, 279314.2, 1.3468300000000002E-10, 2.39486E-05, , 
DataValue, 9.4, 279314.2, 1.347E-10, 2.3965300000000002E-05, , 
DataValue, 9.6, 279314.2, 1.3470100000000002E-10, 2.39691E-05, , 
DataValue, 9.8, 279314.2, 1.34715E-10, 2.39679E-05, , 
DataValue, 10, 279314.2, 1.3474000000000002E-10, 2.39592E-05, , 
DataValue, -10, 320445.30000000005, 1.19392E-10, 2.40414E-05, , 
